
T0A68 000:515 SEGGER J-Link V5.02f Log File (0002ms, 0361ms total)
T0A68 000:515 DLL Compiled: Oct  2 2015 20:51:34 (0002ms, 0361ms total)
T0A68 000:515 Logging started @ 2016-05-08 20:26 (0002ms, 0361ms total)
T0A68 000:517 JLINK_SetWarnOutHandler(...) (0000ms, 0361ms total)
T0A68 000:517 JLINK_OpenEx(...)
Firmware: J-Link V9 compiled Jan 21 2016 18:49:33
Hardware: V9.10
S/N: 59106098
Feature(s): GDB, RDI, FlashDL, FlashBP, JFlash  returns O.K. (0335ms, 0696ms total)
T0A68 000:852 JLINK_SetErrorOutHandler(...) (0000ms, 0696ms total)
T0A68 000:852 JLINK_ExecCommand("ProjectFile = "F:\eb120_code\eb120_ec11\eb120\code\bsp\stm32f10x\JLinkSettings.ini"", ...)  returns 0x00 (0005ms, 0701ms total)
T0A68 000:874 JLINK_ExecCommand("Device = STM32F103RC", ...)Device "STM32F103RC" selected.  returns 0x00 (0031ms, 0732ms total)
T0A68 000:905 JLINK_ExecCommand("DisableConnectionTimeout", ...)  returns 0x01 (0000ms, 0732ms total)
T0A68 000:905 JLINK_GetHardwareVersion()  returns 0x16378 (0000ms, 0732ms total)
T0A68 000:905 JLINK_GetDLLVersion()  returns 50206 (0000ms, 0732ms total)
T0A68 000:905 JLINK_GetFirmwareString(...) (0000ms, 0732ms total)
T0A68 000:927 JLINK_GetDLLVersion()  returns 50206 (0000ms, 0732ms total)
T0A68 000:927 JLINK_GetCompileDateTime() (0000ms, 0732ms total)
T0A68 000:933 JLINK_GetFirmwareString(...) (0000ms, 0732ms total)
T0A68 000:937 JLINK_GetHardwareVersion()  returns 0x16378 (0000ms, 0732ms total)
T0A68 000:954 JLINK_TIF_Select(JLINKARM_TIF_SWD)  returns 0x00 (0014ms, 0746ms total)
T0A68 000:968 JLINK_SetSpeed(50000) (0002ms, 0748ms total)
T0A68 000:971 JLINK_GetId() >0x108 TIF>Found SWD-DP with ID 0x1BA01477 >0x0D TIF> >0x28 TIF> >0x0D TIF> >0x28 TIF> >0x0D TIF> >0x21 TIF> >0x0D TIF> >0x28 TIF> >0x0D TIF> >0x28 TIF> >0x0D TIF> >0x28 TIF> >0x0D TIF> >0x21 TIF> >0x0D TIF> >0x21 TIF> >0x0D TIF> >0x28 TIF> >0x0D TIF> >0x21 TIF> >0x0D TIF> >0x21 TIF> >0x0D TIF> >0x28 TIF> >0x0D TIF> >0x21 TIF> >0x0D TIF> >0x21 TIF> >0x0D TIF> >0x28 TIF> >0x0D TIF> >0x21 TIF> >0x0D TIF> >0x21 TIF> >0x108 TIF>Found SWD-DP with ID 0x1BA01477 >0x0D TIF> >0x21 TIF>
 >0x0D TIF> >0x28 TIF> >0x0D TIF> >0x28 TIF> >0x0D TIF> >0x21 TIF> >0x0D TIF> >0x28 TIF> >0x0D TIF> >0x21 TIF> >0x0D TIF> >0x21 TIF> >0x0D TIF> >0x21 TIF> >0x0D TIF> >0x21 TIF> >0x0D TIF> >0x28 TIF> >0x0D TIF> >0x28 TIF> >0x0D TIF> >0x21 TIF> >0x0D TIF> >0x28 TIF> >0x0D TIF> >0x28 TIF> >0x0D TIF> >0x28 TIF> >0x0D TIF> >0x21 TIF> >0x0D TIF> >0x21 TIF> >0x0D TIF> >0x28 TIF> >0x0D TIF> >0x21 TIF> >0x0D TIF> >0x21 TIF>Found Cortex-M3 r1p1, Little endian. -- CPU_ReadMem(4 bytes @ 0xE000EDF0)
 -- CPU_ReadMem(4 bytes @ 0xE0002000)FPUnit: 6 code (BP) slots and 2 literal slots -- CPU_ReadMem(4 bytes @ 0xE000EDFC) -- CPU_ReadMem(4 bytes @ 0xE0001000) -- CPU_WriteMem(4 bytes @ 0xE0001000) -- CPU_ReadMem(4 bytes @ 0xE000ED88) -- CPU_WriteMem(4 bytes @ 0xE000ED88) -- CPU_ReadMem(4 bytes @ 0xE000ED88) -- CPU_WriteMem(4 bytes @ 0xE000ED88)CoreSight components:ROMTbl 0 @ E00FF000 -- CPU_ReadMem(16 bytes @ 0xE00FF000) -- CPU_ReadMem(16 bytes @ 0xE000EFF0) -- CPU_ReadMem(16 bytes @ 0xE000EFE0)
ROMTbl 0 [0]: FFF0F000, CID: B105E00D, PID: 001BB000 SCS -- CPU_ReadMem(16 bytes @ 0xE0001FF0) -- CPU_ReadMem(16 bytes @ 0xE0001FE0)ROMTbl 0 [1]: FFF02000, CID: B105E00D, PID: 001BB002 DWT -- CPU_ReadMem(16 bytes @ 0xE0002FF0) -- CPU_ReadMem(16 bytes @ 0xE0002FE0)ROMTbl 0 [2]: FFF03000, CID: B105E00D, PID: 000BB003 FPB -- CPU_ReadMem(16 bytes @ 0xE0000FF0) -- CPU_ReadMem(16 bytes @ 0xE0000FE0)ROMTbl 0 [3]: FFF01000, CID: B105E00D, PID: 001BB001 ITM -- CPU_ReadMem(16 bytes @ 0xE00FF010)
 -- CPU_ReadMem(16 bytes @ 0xE0040FF0) -- CPU_ReadMem(16 bytes @ 0xE0040FE0)ROMTbl 0 [4]: FFF41000, CID: B105900D, PID: 001BB923 TPIU-Lite -- CPU_ReadMem(16 bytes @ 0xE0041FF0) -- CPU_ReadMem(16 bytes @ 0xE0041FE0)ROMTbl 0 [5]: FFF42000, CID: B105900D, PID: 101BB924 ETM-M3 >0x0D TIF> >0x21 TIF>  returns 0x1BA01477 (0546ms, 1295ms total)
T0A68 001:517 JLINK_GetDLLVersion()  returns 50206 (0000ms, 1295ms total)
T0A68 001:517 JLINK_CORE_GetFound()  returns 0x30000FF (0004ms, 1299ms total)
T0A68 001:521 JLINK_GetDebugInfo(0x100) -- Value=0xE00FF003  returns 0x00 (0000ms, 1299ms total)
T0A68 001:524 JLINK_GetDebugInfo(0x100) -- Value=0xE00FF003  returns 0x00 (0000ms, 1299ms total)
T0A68 001:524 JLINK_GetDebugInfo(0x101) -- Value=0xE0041000  returns 0x00 (0000ms, 1299ms total)
T0A68 001:524 JLINK_GetDebugInfo(0x102) -- Value=0x00000000  returns 0x00 (0000ms, 1299ms total)
T0A68 001:524 JLINK_GetDebugInfo(0x103) -- Value=0xE0040000  returns 0x00 (0000ms, 1299ms total)
T0A68 001:524 JLINK_GetDebugInfo(0x104) -- Value=0xE0000000  returns 0x00 (0000ms, 1299ms total)
T0A68 001:524 JLINK_GetDebugInfo(0x105) -- Value=0xE0001000  returns 0x00 (0001ms, 1300ms total)
T0A68 001:525 JLINK_GetDebugInfo(0x106) -- Value=0xE0002000  returns 0x00 (0000ms, 1300ms total)
T0A68 001:525 JLINK_GetDebugInfo(0x107) -- Value=0xE000E000  returns 0x00 (0000ms, 1300ms total)
T0A68 001:525 JLINK_GetDebugInfo(0x10C) -- Value=0xE000EDF0  returns 0x00 (0000ms, 1300ms total)
T0A68 001:525 JLINK_ReadMemU32(0xE000ED00, 0x0001 Items, ...) -- CPU is running -- CPU_ReadMem(4 bytes @ 0xE000ED00) - Data: 31 C2 1F 41  returns 0x01 (0005ms, 1305ms total)
T0A68 001:530 JLINK_SetResetType(JLINKARM_RESET_TYPE_NORMAL)  returns JLINKARM_RESET_TYPE_NORMAL (0000ms, 1305ms total)
T0A68 001:530 JLINK_Reset() -- CPU is running -- CPU_WriteMem(4 bytes @ 0xE000EDF0) -- CPU is running -- CPU_WriteMem(4 bytes @ 0xE000EDFC) >0x35 TIF> -- CPU is running -- CPU_WriteMem(4 bytes @ 0xE000ED0C) -- CPU is running -- CPU_ReadMem(4 bytes @ 0xE000EDF0) -- CPU is running -- CPU_ReadMem(4 bytes @ 0xE000EDF0) -- CPU is running -- CPU_WriteMem(4 bytes @ 0xE000EDF0) -- CPU is running -- CPU_WriteMem(4 bytes @ 0xE000EDFC) -- CPU is running -- CPU_ReadMem(4 bytes @ 0xE000EDF0)
 -- CPU_WriteMem(4 bytes @ 0xE0002000) -- CPU_ReadMem(4 bytes @ 0xE000EDFC) -- CPU_ReadMem(4 bytes @ 0xE0001000) (0077ms, 1382ms total)
T0A68 001:607 JLINK_Halt()  returns 0x00 (0000ms, 1382ms total)
T0A68 001:607 JLINK_IsHalted()  returns TRUE (0000ms, 1382ms total)
T0A68 001:607 JLINK_ReadMemU32(0xE000EDF0, 0x0001 Items, ...) -- CPU_ReadMem(4 bytes @ 0xE000EDF0) - Data: 03 00 03 00  returns 0x01 (0005ms, 1387ms total)
T0A68 001:612 JLINK_WriteU32(0xE000EDF0, 0xA05F0003) -- CPU_WriteMem(4 bytes @ 0xE000EDF0)  returns 0x00 (0005ms, 1392ms total)
T0A68 001:617 JLINK_WriteU32(0xE000EDFC, 0x01000000) -- CPU_WriteMem(4 bytes @ 0xE000EDFC)  returns 0x00 (0005ms, 1397ms total)
T0A68 001:632 JLINK_GetHWStatus(...)  returns 0x00 (0004ms, 1401ms total)
T0A68 001:643 JLINK_GetNumBPUnits(Type = 0xFFFFFF00)  returns 0x06 (0000ms, 1401ms total)
T0A68 001:643 JLINK_GetNumBPUnits(Type = 0xF0)  returns 0x2000 (0000ms, 1401ms total)
T0A68 001:643 JLINK_GetNumWPUnits()  returns 0x04 (0000ms, 1401ms total)
T0A68 001:654 JLINK_GetSpeed()  returns 0x2EE0 (0000ms, 1401ms total)
T0A68 001:658 JLINK_ReadMemU32(0xE000E004, 0x0001 Items, ...) -- CPU_ReadMem(4 bytes @ 0xE000E004) - Data: 01 00 00 00  returns 0x01 (0005ms, 1406ms total)
T0A68 001:664 JLINK_ReadMemU32(0xE000E004, 0x0001 Items, ...) -- CPU_ReadMem(4 bytes @ 0xE000E004) - Data: 01 00 00 00  returns 0x01 (0005ms, 1412ms total)
T0A68 001:669 JLINK_WriteMem(0xE0001000, 0x001C Bytes, ...) - Data: 01 00 00 00 00 00 00 00 00 00 00 00 00 00 00 00 ... -- CPU_WriteMem(28 bytes @ 0xE0001000)  returns 0x1C (0005ms, 1417ms total)
T0A68 001:674 JLINK_ReadMem (0xE0001000, 0x001C Bytes, ...) -- CPU_ReadMem(28 bytes @ 0xE0001000) - Data: 01 00 00 40 00 00 00 00 00 00 00 00 00 00 00 00 ...  returns 0x00 (0005ms, 1422ms total)
T0A68 001:679 JLINK_Halt()  returns 0x00 (0000ms, 1422ms total)
T0A68 001:679 JLINK_IsHalted()  returns TRUE (0000ms, 1422ms total)
T0A68 001:687 JLINK_WriteMem(0x20000000, 0x0164 Bytes, ...) - Data: 00 BE 0A E0 0D 78 2D 06 68 40 08 24 40 00 00 D3 ... -- CPU_WriteMem(356 bytes @ 0x20000000)  returns 0x164 (0006ms, 1428ms total)
T0A68 001:693 JLINK_WriteReg(R0, 0x08000000)  returns 0x00 (0000ms, 1428ms total)
T0A68 001:693 JLINK_WriteReg(R1, 0x007A1200)  returns 0x00 (0000ms, 1428ms total)
T0A68 001:693 JLINK_WriteReg(R2, 0x00000001)  returns 0x00 (0000ms, 1428ms total)
T0A68 001:693 JLINK_WriteReg(R3, 0x00000000)  returns 0x00 (0000ms, 1428ms total)
T0A68 001:693 JLINK_WriteReg(R4, 0x00000000)  returns 0x00 (0000ms, 1428ms total)
T0A68 001:693 JLINK_WriteReg(R5, 0x00000000)  returns 0x00 (0000ms, 1428ms total)
T0A68 001:693 JLINK_WriteReg(R6, 0x00000000)  returns 0x00 (0000ms, 1428ms total)
T0A68 001:693 JLINK_WriteReg(R7, 0x00000000)  returns 0x00 (0001ms, 1429ms total)
T0A68 001:694 JLINK_WriteReg(R8, 0x00000000)  returns 0x00 (0000ms, 1429ms total)
T0A68 001:694 JLINK_WriteReg(R9, 0x20000160)  returns 0x00 (0000ms, 1429ms total)
T0A68 001:694 JLINK_WriteReg(R10, 0x00000000)  returns 0x00 (0000ms, 1429ms total)
T0A68 001:694 JLINK_WriteReg(R11, 0x00000000)  returns 0x00 (0000ms, 1429ms total)
T0A68 001:694 JLINK_WriteReg(R12, 0x00000000)  returns 0x00 (0000ms, 1429ms total)
T0A68 001:694 JLINK_WriteReg(R13 (SP), 0x20001000)  returns 0x00 (0000ms, 1429ms total)
T0A68 001:694 JLINK_WriteReg(R14, 0x20000001)  returns 0x00 (0000ms, 1429ms total)
T0A68 001:694 JLINK_WriteReg(R15 (PC), 0x20000038)  returns 0x00 (0000ms, 1429ms total)
T0A68 001:694 JLINK_WriteReg(XPSR, 0x01000000)  returns 0x00 (0000ms, 1429ms total)
T0A68 001:694 JLINK_WriteReg(MSP, 0x20001000)  returns 0x00 (0000ms, 1429ms total)
T0A68 001:694 JLINK_WriteReg(PSP, 0x20001000)  returns 0x00 (0000ms, 1429ms total)
T0A68 001:694 JLINK_WriteReg(CFBP, 0x00000000)  returns 0x00 (0001ms, 1430ms total)
T0A68 001:695 JLINK_SetBPEx(Addr = 0x20000000, Type = 0xFFFFFFF2) -- CPU_ReadMem(2 bytes @ 0x20000000)  returns 0x00000001 (0005ms, 1435ms total)
T0A68 001:700 JLINK_Go() -- CPU_WriteMem(2 bytes @ 0x20000000) -- CPU_ReadMem(4 bytes @ 0xE0001000) -- CPU_WriteMem(4 bytes @ 0xE0002008) -- CPU_WriteMem(4 bytes @ 0xE000200C) -- CPU_WriteMem(4 bytes @ 0xE0002010) -- CPU_WriteMem(4 bytes @ 0xE0002014) -- CPU_WriteMem(4 bytes @ 0xE0002018) -- CPU_WriteMem(4 bytes @ 0xE000201C) -- CPU_WriteMem(4 bytes @ 0xE0001004) (0030ms, 1465ms total)
T0A68 001:730 JLINK_IsHalted() -- CPU_ReadMem(2 bytes @ 0x20000000)  returns TRUE (0015ms, 1480ms total)
T0A68 001:745 JLINK_ReadReg(R15 (PC))  returns 0x20000000 (0000ms, 1465ms total)
T0A68 001:745 JLINK_ClrBPEx(BPHandle = 0x00000001)  returns 0x00 (0001ms, 1466ms total)
T0A68 001:746 JLINK_ReadReg(R0)  returns 0x00000000 (0000ms, 1466ms total)
T0A68 001:746 JLINK_WriteReg(R0, 0x08000000)  returns 0x00 (0000ms, 1466ms total)
T0A68 001:746 JLINK_WriteReg(R1, 0x007A1200)  returns 0x00 (0000ms, 1466ms total)
T0A68 001:746 JLINK_WriteReg(R2, 0x00000001)  returns 0x00 (0000ms, 1466ms total)
T0A68 001:746 JLINK_WriteReg(R3, 0x00000000)  returns 0x00 (0000ms, 1466ms total)
T0A68 001:746 JLINK_WriteReg(R4, 0x00000000)  returns 0x00 (0000ms, 1466ms total)
T0A68 001:746 JLINK_WriteReg(R5, 0x00000000)  returns 0x00 (0000ms, 1466ms total)
T0A68 001:746 JLINK_WriteReg(R6, 0x00000000)  returns 0x00 (0000ms, 1466ms total)
T0A68 001:746 JLINK_WriteReg(R7, 0x00000000)  returns 0x00 (0000ms, 1466ms total)
T0A68 001:746 JLINK_WriteReg(R8, 0x00000000)  returns 0x00 (0000ms, 1466ms total)
T0A68 001:746 JLINK_WriteReg(R9, 0x20000160)  returns 0x00 (0000ms, 1466ms total)
T0A68 001:746 JLINK_WriteReg(R10, 0x00000000)  returns 0x00 (0000ms, 1466ms total)
T0A68 001:746 JLINK_WriteReg(R11, 0x00000000)  returns 0x00 (0000ms, 1466ms total)
T0A68 001:746 JLINK_WriteReg(R12, 0x00000000)  returns 0x00 (0000ms, 1466ms total)
T0A68 001:746 JLINK_WriteReg(R13 (SP), 0x20001000)  returns 0x00 (0000ms, 1466ms total)
T0A68 001:746 JLINK_WriteReg(R14, 0x20000001)  returns 0x00 (0000ms, 1466ms total)
T0A68 001:746 JLINK_WriteReg(R15 (PC), 0x2000007C)  returns 0x00 (0000ms, 1466ms total)
T0A68 001:746 JLINK_WriteReg(XPSR, 0x01000000)  returns 0x00 (0001ms, 1467ms total)
T0A68 001:747 JLINK_WriteReg(MSP, 0x20001000)  returns 0x00 (0000ms, 1467ms total)
T0A68 001:747 JLINK_WriteReg(PSP, 0x20001000)  returns 0x00 (0000ms, 1467ms total)
T0A68 001:747 JLINK_WriteReg(CFBP, 0x00000000)  returns 0x00 (0000ms, 1467ms total)
T0A68 001:747 JLINK_SetBPEx(Addr = 0x20000000, Type = 0xFFFFFFF2)  returns 0x00000002 (0000ms, 1467ms total)
T0A68 001:747 JLINK_Go() -- CPU_ReadMem(4 bytes @ 0xE0001000) (0015ms, 1482ms total)
T0A68 001:762 JLINK_IsHalted()  returns FALSE (0005ms, 1487ms total)
T0A68 001:927 JLINK_IsHalted() -- CPU_ReadMem(2 bytes @ 0x20000000)  returns TRUE (0015ms, 1497ms total)
T0A68 001:942 JLINK_ReadReg(R15 (PC))  returns 0x20000000 (0000ms, 1482ms total)
T0A68 001:942 JLINK_ClrBPEx(BPHandle = 0x00000002)  returns 0x00 (0000ms, 1482ms total)
T0A68 001:942 JLINK_ReadReg(R0)  returns 0x00000000 (0000ms, 1482ms total)
T0A68 001:993 JLINK_WriteReg(R0, 0x00000001)  returns 0x00 (0000ms, 1482ms total)
T0A68 001:993 JLINK_WriteReg(R1, 0x007A1200)  returns 0x00 (0000ms, 1482ms total)
T0A68 001:993 JLINK_WriteReg(R2, 0x00000001)  returns 0x00 (0000ms, 1482ms total)
T0A68 001:993 JLINK_WriteReg(R3, 0x00000000)  returns 0x00 (0000ms, 1482ms total)
T0A68 001:993 JLINK_WriteReg(R4, 0x00000000)  returns 0x00 (0000ms, 1482ms total)
T0A68 001:993 JLINK_WriteReg(R5, 0x00000000)  returns 0x00 (0000ms, 1482ms total)
T0A68 001:993 JLINK_WriteReg(R6, 0x00000000)  returns 0x00 (0000ms, 1482ms total)
T0A68 001:993 JLINK_WriteReg(R7, 0x00000000)  returns 0x00 (0000ms, 1482ms total)
T0A68 001:993 JLINK_WriteReg(R8, 0x00000000)  returns 0x00 (0000ms, 1482ms total)
T0A68 001:993 JLINK_WriteReg(R9, 0x20000160)  returns 0x00 (0000ms, 1482ms total)
T0A68 001:993 JLINK_WriteReg(R10, 0x00000000)  returns 0x00 (0000ms, 1482ms total)
T0A68 001:993 JLINK_WriteReg(R11, 0x00000000)  returns 0x00 (0001ms, 1483ms total)
T0A68 001:994 JLINK_WriteReg(R12, 0x00000000)  returns 0x00 (0000ms, 1483ms total)
T0A68 001:994 JLINK_WriteReg(R13 (SP), 0x20001000)  returns 0x00 (0000ms, 1483ms total)
T0A68 001:994 JLINK_WriteReg(R14, 0x20000001)  returns 0x00 (0000ms, 1483ms total)
T0A68 001:994 JLINK_WriteReg(R15 (PC), 0x2000006A)  returns 0x00 (0000ms, 1483ms total)
T0A68 001:994 JLINK_WriteReg(XPSR, 0x01000000)  returns 0x00 (0000ms, 1483ms total)
T0A68 001:994 JLINK_WriteReg(MSP, 0x20001000)  returns 0x00 (0000ms, 1483ms total)
T0A68 001:994 JLINK_WriteReg(PSP, 0x20001000)  returns 0x00 (0000ms, 1483ms total)
T0A68 001:994 JLINK_WriteReg(CFBP, 0x00000000)  returns 0x00 (0000ms, 1483ms total)
T0A68 001:994 JLINK_SetBPEx(Addr = 0x20000000, Type = 0xFFFFFFF2)  returns 0x00000003 (0000ms, 1483ms total)
T0A68 001:994 JLINK_Go() -- CPU_ReadMem(4 bytes @ 0xE0001000) (0015ms, 1498ms total)
T0A68 002:009 JLINK_IsHalted() -- CPU_ReadMem(2 bytes @ 0x20000000)  returns TRUE (0014ms, 1512ms total)
T0A68 002:023 JLINK_ReadReg(R15 (PC))  returns 0x20000000 (0000ms, 1498ms total)
T0A68 002:023 JLINK_ClrBPEx(BPHandle = 0x00000003)  returns 0x00 (0000ms, 1498ms total)
T0A68 002:023 JLINK_ReadReg(R0)  returns 0x00000000 (0000ms, 1498ms total)
T0A68 002:031 JLINK_WriteMem(0x20000000, 0x0164 Bytes, ...) - Data: 00 BE 0A E0 0D 78 2D 06 68 40 08 24 40 00 00 D3 ... -- CPU_WriteMem(356 bytes @ 0x20000000)  returns 0x164 (0006ms, 1504ms total)
T0A68 002:037 JLINK_WriteReg(R0, 0x08000000)  returns 0x00 (0000ms, 1504ms total)
T0A68 002:037 JLINK_WriteReg(R1, 0x007A1200)  returns 0x00 (0000ms, 1504ms total)
T0A68 002:037 JLINK_WriteReg(R2, 0x00000002)  returns 0x00 (0000ms, 1504ms total)
T0A68 002:037 JLINK_WriteReg(R3, 0x00000000)  returns 0x00 (0000ms, 1504ms total)
T0A68 002:037 JLINK_WriteReg(R4, 0x00000000)  returns 0x00 (0000ms, 1504ms total)
T0A68 002:037 JLINK_WriteReg(R5, 0x00000000)  returns 0x00 (0000ms, 1504ms total)
T0A68 002:037 JLINK_WriteReg(R6, 0x00000000)  returns 0x00 (0000ms, 1504ms total)
T0A68 002:037 JLINK_WriteReg(R7, 0x00000000)  returns 0x00 (0000ms, 1504ms total)
T0A68 002:037 JLINK_WriteReg(R8, 0x00000000)  returns 0x00 (0001ms, 1505ms total)
T0A68 002:038 JLINK_WriteReg(R9, 0x20000160)  returns 0x00 (0000ms, 1505ms total)
T0A68 002:038 JLINK_WriteReg(R10, 0x00000000)  returns 0x00 (0000ms, 1505ms total)
T0A68 002:038 JLINK_WriteReg(R11, 0x00000000)  returns 0x00 (0000ms, 1505ms total)
T0A68 002:038 JLINK_WriteReg(R12, 0x00000000)  returns 0x00 (0000ms, 1505ms total)
T0A68 002:038 JLINK_WriteReg(R13 (SP), 0x20001000)  returns 0x00 (0000ms, 1505ms total)
T0A68 002:038 JLINK_WriteReg(R14, 0x20000001)  returns 0x00 (0000ms, 1505ms total)
T0A68 002:038 JLINK_WriteReg(R15 (PC), 0x20000038)  returns 0x00 (0000ms, 1505ms total)
T0A68 002:038 JLINK_WriteReg(XPSR, 0x01000000)  returns 0x00 (0000ms, 1505ms total)
T0A68 002:038 JLINK_WriteReg(MSP, 0x20001000)  returns 0x00 (0000ms, 1505ms total)
T0A68 002:038 JLINK_WriteReg(PSP, 0x20001000)  returns 0x00 (0000ms, 1505ms total)
T0A68 002:038 JLINK_WriteReg(CFBP, 0x00000000)  returns 0x00 (0000ms, 1505ms total)
T0A68 002:038 JLINK_SetBPEx(Addr = 0x20000000, Type = 0xFFFFFFF2) -- CPU_ReadMem(2 bytes @ 0x20000000)  returns 0x00000004 (0006ms, 1511ms total)
T0A68 002:044 JLINK_Go() -- CPU_WriteMem(2 bytes @ 0x20000000) -- CPU_ReadMem(4 bytes @ 0xE0001000) (0020ms, 1531ms total)
T0A68 002:064 JLINK_IsHalted() -- CPU_ReadMem(2 bytes @ 0x20000000)  returns TRUE (0014ms, 1545ms total)
T0A68 002:078 JLINK_ReadReg(R15 (PC))  returns 0x20000000 (0000ms, 1531ms total)
T0A68 002:078 JLINK_ClrBPEx(BPHandle = 0x00000004)  returns 0x00 (0000ms, 1531ms total)
T0A68 002:078 JLINK_ReadReg(R0)  returns 0x00000000 (0000ms, 1531ms total)
T0A68 002:079 JLINK_WriteMem(0x20000164, 0x0400 Bytes, ...) - Data: F8 34 00 20 45 01 00 08 C9 10 00 08 0F 02 00 08 ... -- CPU_WriteMem(1024 bytes @ 0x20000164)  returns 0x400 (0006ms, 1537ms total)
T0A68 002:085 JLINK_WriteReg(R0, 0x08000000)  returns 0x00 (0000ms, 1537ms total)
T0A68 002:085 JLINK_WriteReg(R1, 0x00000400)  returns 0x00 (0000ms, 1537ms total)
T0A68 002:085 JLINK_WriteReg(R2, 0x20000164)  returns 0x00 (0001ms, 1538ms total)
T0A68 002:086 JLINK_WriteReg(R3, 0x00000000)  returns 0x00 (0000ms, 1538ms total)
T0A68 002:086 JLINK_WriteReg(R4, 0x00000000)  returns 0x00 (0000ms, 1538ms total)
T0A68 002:086 JLINK_WriteReg(R5, 0x00000000)  returns 0x00 (0000ms, 1538ms total)
T0A68 002:086 JLINK_WriteReg(R6, 0x00000000)  returns 0x00 (0000ms, 1538ms total)
T0A68 002:086 JLINK_WriteReg(R7, 0x00000000)  returns 0x00 (0000ms, 1538ms total)
T0A68 002:086 JLINK_WriteReg(R8, 0x00000000)  returns 0x00 (0000ms, 1538ms total)
T0A68 002:086 JLINK_WriteReg(R9, 0x20000160)  returns 0x00 (0000ms, 1538ms total)
T0A68 002:086 JLINK_WriteReg(R10, 0x00000000)  returns 0x00 (0000ms, 1538ms total)
T0A68 002:086 JLINK_WriteReg(R11, 0x00000000)  returns 0x00 (0000ms, 1538ms total)
T0A68 002:086 JLINK_WriteReg(R12, 0x00000000)  returns 0x00 (0000ms, 1538ms total)
T0A68 002:086 JLINK_WriteReg(R13 (SP), 0x20001000)  returns 0x00 (0001ms, 1539ms total)
T0A68 002:087 JLINK_WriteReg(R14, 0x20000001)  returns 0x00 (0000ms, 1539ms total)
T0A68 002:087 JLINK_WriteReg(R15 (PC), 0x200000F4)  returns 0x00 (0000ms, 1539ms total)
T0A68 002:087 JLINK_WriteReg(XPSR, 0x01000000)  returns 0x00 (0000ms, 1539ms total)
T0A68 002:087 JLINK_WriteReg(MSP, 0x20001000)  returns 0x00 (0000ms, 1539ms total)
T0A68 002:087 JLINK_WriteReg(PSP, 0x20001000)  returns 0x00 (0000ms, 1539ms total)
T0A68 002:087 JLINK_WriteReg(CFBP, 0x00000000)  returns 0x00 (0000ms, 1539ms total)
T0A68 002:087 JLINK_SetBPEx(Addr = 0x20000000, Type = 0xFFFFFFF2)  returns 0x00000005 (0000ms, 1539ms total)
T0A68 002:087 JLINK_Go() -- CPU_ReadMem(4 bytes @ 0xE0001000) (0015ms, 1554ms total)
T0A68 002:102 JLINK_IsHalted()  returns FALSE (0005ms, 1559ms total)
T0A68 002:153 JLINK_IsHalted() -- CPU_ReadMem(2 bytes @ 0x20000000)  returns TRUE (0015ms, 1569ms total)
T0A68 002:168 JLINK_ReadReg(R15 (PC))  returns 0x20000000 (0000ms, 1554ms total)
T0A68 002:168 JLINK_ClrBPEx(BPHandle = 0x00000005)  returns 0x00 (0000ms, 1554ms total)
T0A68 002:168 JLINK_ReadReg(R0)  returns 0x00000000 (0000ms, 1554ms total)
T0A68 002:169 JLINK_WriteMem(0x20000164, 0x0400 Bytes, ...) - Data: 10 2D 07 D1 00 27 10 25 14 F8 01 0B 02 E0 08 25 ... -- CPU_WriteMem(1024 bytes @ 0x20000164)  returns 0x400 (0006ms, 1560ms total)
T0A68 002:175 JLINK_WriteReg(R0, 0x08000400)  returns 0x00 (0000ms, 1560ms total)
T0A68 002:175 JLINK_WriteReg(R1, 0x00000400)  returns 0x00 (0000ms, 1560ms total)
T0A68 002:175 JLINK_WriteReg(R2, 0x20000164)  returns 0x00 (0000ms, 1560ms total)
T0A68 002:175 JLINK_WriteReg(R3, 0x00000000)  returns 0x00 (0001ms, 1561ms total)
T0A68 002:176 JLINK_WriteReg(R4, 0x00000000)  returns 0x00 (0000ms, 1561ms total)
T0A68 002:176 JLINK_WriteReg(R5, 0x00000000)  returns 0x00 (0000ms, 1561ms total)
T0A68 002:176 JLINK_WriteReg(R6, 0x00000000)  returns 0x00 (0000ms, 1561ms total)
T0A68 002:176 JLINK_WriteReg(R7, 0x00000000)  returns 0x00 (0000ms, 1561ms total)
T0A68 002:176 JLINK_WriteReg(R8, 0x00000000)  returns 0x00 (0000ms, 1561ms total)
T0A68 002:176 JLINK_WriteReg(R9, 0x20000160)  returns 0x00 (0000ms, 1561ms total)
T0A68 002:176 JLINK_WriteReg(R10, 0x00000000)  returns 0x00 (0000ms, 1561ms total)
T0A68 002:176 JLINK_WriteReg(R11, 0x00000000)  returns 0x00 (0000ms, 1561ms total)
T0A68 002:176 JLINK_WriteReg(R12, 0x00000000)  returns 0x00 (0000ms, 1561ms total)
T0A68 002:176 JLINK_WriteReg(R13 (SP), 0x20001000)  returns 0x00 (0000ms, 1561ms total)
T0A68 002:176 JLINK_WriteReg(R14, 0x20000001)  returns 0x00 (0000ms, 1561ms total)
T0A68 002:176 JLINK_WriteReg(R15 (PC), 0x200000F4)  returns 0x00 (0001ms, 1562ms total)
T0A68 002:177 JLINK_WriteReg(XPSR, 0x01000000)  returns 0x00 (0000ms, 1562ms total)
T0A68 002:177 JLINK_WriteReg(MSP, 0x20001000)  returns 0x00 (0000ms, 1562ms total)
T0A68 002:177 JLINK_WriteReg(PSP, 0x20001000)  returns 0x00 (0000ms, 1562ms total)
T0A68 002:177 JLINK_WriteReg(CFBP, 0x00000000)  returns 0x00 (0000ms, 1562ms total)
T0A68 002:177 JLINK_SetBPEx(Addr = 0x20000000, Type = 0xFFFFFFF2)  returns 0x00000006 (0000ms, 1562ms total)
T0A68 002:177 JLINK_Go() -- CPU_ReadMem(4 bytes @ 0xE0001000) (0015ms, 1577ms total)
T0A68 002:192 JLINK_IsHalted()  returns FALSE (0005ms, 1582ms total)
T0A68 002:211 JLINK_IsHalted()  returns FALSE (0005ms, 1582ms total)
T0A68 002:217 JLINK_IsHalted()  returns FALSE (0005ms, 1582ms total)
T0A68 002:223 JLINK_IsHalted()  returns FALSE (0005ms, 1582ms total)
T0A68 002:229 JLINK_IsHalted()  returns FALSE (0004ms, 1581ms total)
T0A68 002:234 JLINK_IsHalted()  returns FALSE (0004ms, 1581ms total)
T0A68 002:240 JLINK_IsHalted() -- CPU_ReadMem(2 bytes @ 0x20000000)  returns TRUE (0013ms, 1590ms total)
T0A68 002:253 JLINK_ReadReg(R15 (PC))  returns 0x20000000 (0000ms, 1577ms total)
T0A68 002:253 JLINK_ClrBPEx(BPHandle = 0x00000006)  returns 0x00 (0000ms, 1577ms total)
T0A68 002:253 JLINK_ReadReg(R0)  returns 0x00000000 (0000ms, 1577ms total)
T0A68 002:254 JLINK_WriteMem(0x20000164, 0x0400 Bytes, ...) - Data: 8D F8 02 00 04 20 8D F8 03 00 00 02 AD F8 00 00 ... -- CPU_WriteMem(1024 bytes @ 0x20000164)  returns 0x400 (0006ms, 1583ms total)
T0A68 002:260 JLINK_WriteReg(R0, 0x08000800)  returns 0x00 (0000ms, 1583ms total)
T0A68 002:261 JLINK_WriteReg(R1, 0x00000400)  returns 0x00 (0000ms, 1583ms total)
T0A68 002:261 JLINK_WriteReg(R2, 0x20000164)  returns 0x00 (0000ms, 1583ms total)
T0A68 002:261 JLINK_WriteReg(R3, 0x00000000)  returns 0x00 (0000ms, 1583ms total)
T0A68 002:261 JLINK_WriteReg(R4, 0x00000000)  returns 0x00 (0000ms, 1583ms total)
T0A68 002:261 JLINK_WriteReg(R5, 0x00000000)  returns 0x00 (0000ms, 1583ms total)
T0A68 002:261 JLINK_WriteReg(R6, 0x00000000)  returns 0x00 (0000ms, 1583ms total)
T0A68 002:261 JLINK_WriteReg(R7, 0x00000000)  returns 0x00 (0000ms, 1583ms total)
T0A68 002:261 JLINK_WriteReg(R8, 0x00000000)  returns 0x00 (0000ms, 1583ms total)
T0A68 002:261 JLINK_WriteReg(R9, 0x20000160)  returns 0x00 (0000ms, 1583ms total)
T0A68 002:261 JLINK_WriteReg(R10, 0x00000000)  returns 0x00 (0000ms, 1583ms total)
T0A68 002:261 JLINK_WriteReg(R11, 0x00000000)  returns 0x00 (0000ms, 1583ms total)
T0A68 002:261 JLINK_WriteReg(R12, 0x00000000)  returns 0x00 (0000ms, 1583ms total)
T0A68 002:261 JLINK_WriteReg(R13 (SP), 0x20001000)  returns 0x00 (0001ms, 1584ms total)
T0A68 002:262 JLINK_WriteReg(R14, 0x20000001)  returns 0x00 (0000ms, 1584ms total)
T0A68 002:262 JLINK_WriteReg(R15 (PC), 0x200000F4)  returns 0x00 (0000ms, 1584ms total)
T0A68 002:262 JLINK_WriteReg(XPSR, 0x01000000)  returns 0x00 (0000ms, 1584ms total)
T0A68 002:262 JLINK_WriteReg(MSP, 0x20001000)  returns 0x00 (0000ms, 1584ms total)
T0A68 002:262 JLINK_WriteReg(PSP, 0x20001000)  returns 0x00 (0000ms, 1584ms total)
T0A68 002:262 JLINK_WriteReg(CFBP, 0x00000000)  returns 0x00 (0000ms, 1584ms total)
T0A68 002:262 JLINK_SetBPEx(Addr = 0x20000000, Type = 0xFFFFFFF2)  returns 0x00000007 (0000ms, 1584ms total)
T0A68 002:262 JLINK_Go() -- CPU_ReadMem(4 bytes @ 0xE0001000) (0015ms, 1599ms total)
T0A68 002:277 JLINK_IsHalted()  returns FALSE (0005ms, 1604ms total)
T0A68 002:302 JLINK_IsHalted()  returns FALSE (0005ms, 1604ms total)
T0A68 002:308 JLINK_IsHalted()  returns FALSE (0005ms, 1604ms total)
T0A68 002:314 JLINK_IsHalted()  returns FALSE (0004ms, 1603ms total)
T0A68 002:320 JLINK_IsHalted()  returns FALSE (0005ms, 1604ms total)
T0A68 002:326 JLINK_IsHalted() -- CPU_ReadMem(2 bytes @ 0x20000000)  returns TRUE (0015ms, 1614ms total)
T0A68 002:341 JLINK_ReadReg(R15 (PC))  returns 0x20000000 (0000ms, 1599ms total)
T0A68 002:341 JLINK_ClrBPEx(BPHandle = 0x00000007)  returns 0x00 (0000ms, 1599ms total)
T0A68 002:341 JLINK_ReadReg(R0)  returns 0x00000000 (0000ms, 1599ms total)
T0A68 002:342 JLINK_WriteMem(0x20000164, 0x0400 Bytes, ...) - Data: 45 48 1F 30 84 42 1C D0 43 48 3F 30 84 42 18 D0 ... -- CPU_WriteMem(1024 bytes @ 0x20000164)  returns 0x400 (0007ms, 1606ms total)
T0A68 002:349 JLINK_WriteReg(R0, 0x08000C00)  returns 0x00 (0000ms, 1606ms total)
T0A68 002:349 JLINK_WriteReg(R1, 0x00000400)  returns 0x00 (0000ms, 1606ms total)
T0A68 002:349 JLINK_WriteReg(R2, 0x20000164)  returns 0x00 (0000ms, 1606ms total)
T0A68 002:349 JLINK_WriteReg(R3, 0x00000000)  returns 0x00 (0000ms, 1606ms total)
T0A68 002:349 JLINK_WriteReg(R4, 0x00000000)  returns 0x00 (0000ms, 1606ms total)
T0A68 002:349 JLINK_WriteReg(R5, 0x00000000)  returns 0x00 (0000ms, 1606ms total)
T0A68 002:349 JLINK_WriteReg(R6, 0x00000000)  returns 0x00 (0000ms, 1606ms total)
T0A68 002:349 JLINK_WriteReg(R7, 0x00000000)  returns 0x00 (0000ms, 1606ms total)
T0A68 002:349 JLINK_WriteReg(R8, 0x00000000)  returns 0x00 (0000ms, 1606ms total)
T0A68 002:349 JLINK_WriteReg(R9, 0x20000160)  returns 0x00 (0000ms, 1606ms total)
T0A68 002:349 JLINK_WriteReg(R10, 0x00000000)  returns 0x00 (0000ms, 1606ms total)
T0A68 002:349 JLINK_WriteReg(R11, 0x00000000)  returns 0x00 (0000ms, 1606ms total)
T0A68 002:349 JLINK_WriteReg(R12, 0x00000000)  returns 0x00 (0001ms, 1607ms total)
T0A68 002:350 JLINK_WriteReg(R13 (SP), 0x20001000)  returns 0x00 (0000ms, 1607ms total)
T0A68 002:350 JLINK_WriteReg(R14, 0x20000001)  returns 0x00 (0000ms, 1607ms total)
T0A68 002:350 JLINK_WriteReg(R15 (PC), 0x200000F4)  returns 0x00 (0000ms, 1607ms total)
T0A68 002:350 JLINK_WriteReg(XPSR, 0x01000000)  returns 0x00 (0000ms, 1607ms total)
T0A68 002:350 JLINK_WriteReg(MSP, 0x20001000)  returns 0x00 (0000ms, 1607ms total)
T0A68 002:350 JLINK_WriteReg(PSP, 0x20001000)  returns 0x00 (0000ms, 1607ms total)
T0A68 002:350 JLINK_WriteReg(CFBP, 0x00000000)  returns 0x00 (0000ms, 1607ms total)
T0A68 002:350 JLINK_SetBPEx(Addr = 0x20000000, Type = 0xFFFFFFF2)  returns 0x00000008 (0000ms, 1607ms total)
T0A68 002:350 JLINK_Go() -- CPU_ReadMem(4 bytes @ 0xE0001000) (0015ms, 1622ms total)
T0A68 002:366 JLINK_IsHalted()  returns FALSE (0005ms, 1628ms total)
T0A68 002:377 JLINK_IsHalted()  returns FALSE (0004ms, 1627ms total)
T0A68 002:382 JLINK_IsHalted()  returns FALSE (0005ms, 1628ms total)
T0A68 002:392 JLINK_IsHalted()  returns FALSE (0005ms, 1628ms total)
T0A68 002:400 JLINK_IsHalted()  returns FALSE (0005ms, 1628ms total)
T0A68 002:406 JLINK_IsHalted()  returns FALSE (0005ms, 1628ms total)
T0A68 002:412 JLINK_IsHalted() -- CPU_ReadMem(2 bytes @ 0x20000000)  returns TRUE (0015ms, 1638ms total)
T0A68 002:427 JLINK_ReadReg(R15 (PC))  returns 0x20000000 (0000ms, 1623ms total)
T0A68 002:427 JLINK_ClrBPEx(BPHandle = 0x00000008)  returns 0x00 (0000ms, 1623ms total)
T0A68 002:427 JLINK_ReadReg(R0)  returns 0x00000000 (0000ms, 1623ms total)
T0A68 002:429 JLINK_WriteMem(0x20000164, 0x0400 Bytes, ...) - Data: 09 A0 02 F0 71 FD 25 61 70 BD 00 00 00 08 01 40 ... -- CPU_WriteMem(1024 bytes @ 0x20000164)  returns 0x400 (0007ms, 1630ms total)
T0A68 002:436 JLINK_WriteReg(R0, 0x08001000)  returns 0x00 (0000ms, 1630ms total)
T0A68 002:436 JLINK_WriteReg(R1, 0x00000400)  returns 0x00 (0000ms, 1630ms total)
T0A68 002:436 JLINK_WriteReg(R2, 0x20000164)  returns 0x00 (0000ms, 1630ms total)
T0A68 002:436 JLINK_WriteReg(R3, 0x00000000)  returns 0x00 (0000ms, 1630ms total)
T0A68 002:436 JLINK_WriteReg(R4, 0x00000000)  returns 0x00 (0001ms, 1631ms total)
T0A68 002:437 JLINK_WriteReg(R5, 0x00000000)  returns 0x00 (0000ms, 1631ms total)
T0A68 002:437 JLINK_WriteReg(R6, 0x00000000)  returns 0x00 (0000ms, 1631ms total)
T0A68 002:437 JLINK_WriteReg(R7, 0x00000000)  returns 0x00 (0000ms, 1631ms total)
T0A68 002:437 JLINK_WriteReg(R8, 0x00000000)  returns 0x00 (0000ms, 1631ms total)
T0A68 002:437 JLINK_WriteReg(R9, 0x20000160)  returns 0x00 (0000ms, 1631ms total)
T0A68 002:437 JLINK_WriteReg(R10, 0x00000000)  returns 0x00 (0000ms, 1631ms total)
T0A68 002:437 JLINK_WriteReg(R11, 0x00000000)  returns 0x00 (0000ms, 1631ms total)
T0A68 002:437 JLINK_WriteReg(R12, 0x00000000)  returns 0x00 (0000ms, 1631ms total)
T0A68 002:437 JLINK_WriteReg(R13 (SP), 0x20001000)  returns 0x00 (0000ms, 1631ms total)
T0A68 002:437 JLINK_WriteReg(R14, 0x20000001)  returns 0x00 (0001ms, 1632ms total)
T0A68 002:438 JLINK_WriteReg(R15 (PC), 0x200000F4)  returns 0x00 (0000ms, 1632ms total)
T0A68 002:438 JLINK_WriteReg(XPSR, 0x01000000)  returns 0x00 (0000ms, 1632ms total)
T0A68 002:438 JLINK_WriteReg(MSP, 0x20001000)  returns 0x00 (0000ms, 1632ms total)
T0A68 002:438 JLINK_WriteReg(PSP, 0x20001000)  returns 0x00 (0000ms, 1632ms total)
T0A68 002:438 JLINK_WriteReg(CFBP, 0x00000000)  returns 0x00 (0000ms, 1632ms total)
T0A68 002:438 JLINK_SetBPEx(Addr = 0x20000000, Type = 0xFFFFFFF2)  returns 0x00000009 (0000ms, 1632ms total)
T0A68 002:438 JLINK_Go() -- CPU_ReadMem(4 bytes @ 0xE0001000) (0019ms, 1651ms total)
T0A68 002:457 JLINK_IsHalted()  returns FALSE (0005ms, 1656ms total)
T0A68 002:463 JLINK_IsHalted()  returns FALSE (0005ms, 1656ms total)
T0A68 002:469 JLINK_IsHalted()  returns FALSE (0005ms, 1656ms total)
T0A68 002:484 JLINK_IsHalted()  returns FALSE (0005ms, 1656ms total)
T0A68 002:496 JLINK_IsHalted()  returns FALSE (0004ms, 1655ms total)
T0A68 002:502 JLINK_IsHalted() -- CPU_ReadMem(2 bytes @ 0x20000000)  returns TRUE (0016ms, 1667ms total)
T0A68 002:518 JLINK_ReadReg(R15 (PC))  returns 0x20000000 (0005ms, 1656ms total)
T0A68 002:523 JLINK_ClrBPEx(BPHandle = 0x00000009)  returns 0x00 (0000ms, 1656ms total)
T0A68 002:523 JLINK_ReadReg(R0)  returns 0x00000000 (0000ms, 1656ms total)
T0A68 002:523 JLINK_WriteMem(0x20000164, 0x0400 Bytes, ...) - Data: 4C 16 00 20 70 B5 04 46 0D 46 05 F1 B0 00 00 21 ... -- CPU_WriteMem(1024 bytes @ 0x20000164)  returns 0x400 (0007ms, 1663ms total)
T0A68 002:530 JLINK_WriteReg(R0, 0x08001400)  returns 0x00 (0000ms, 1663ms total)
T0A68 002:530 JLINK_WriteReg(R1, 0x00000400)  returns 0x00 (0000ms, 1663ms total)
T0A68 002:530 JLINK_WriteReg(R2, 0x20000164)  returns 0x00 (0000ms, 1663ms total)
T0A68 002:530 JLINK_WriteReg(R3, 0x00000000)  returns 0x00 (0000ms, 1663ms total)
T0A68 002:530 JLINK_WriteReg(R4, 0x00000000)  returns 0x00 (0000ms, 1663ms total)
T0A68 002:530 JLINK_WriteReg(R5, 0x00000000)  returns 0x00 (0000ms, 1663ms total)
T0A68 002:530 JLINK_WriteReg(R6, 0x00000000)  returns 0x00 (0001ms, 1664ms total)
T0A68 002:531 JLINK_WriteReg(R7, 0x00000000)  returns 0x00 (0000ms, 1664ms total)
T0A68 002:531 JLINK_WriteReg(R8, 0x00000000)  returns 0x00 (0000ms, 1664ms total)
T0A68 002:531 JLINK_WriteReg(R9, 0x20000160)  returns 0x00 (0000ms, 1664ms total)
T0A68 002:531 JLINK_WriteReg(R10, 0x00000000)  returns 0x00 (0000ms, 1664ms total)
T0A68 002:531 JLINK_WriteReg(R11, 0x00000000)  returns 0x00 (0000ms, 1664ms total)
T0A68 002:531 JLINK_WriteReg(R12, 0x00000000)  returns 0x00 (0000ms, 1664ms total)
T0A68 002:531 JLINK_WriteReg(R13 (SP), 0x20001000)  returns 0x00 (0000ms, 1664ms total)
T0A68 002:531 JLINK_WriteReg(R14, 0x20000001)  returns 0x00 (0000ms, 1664ms total)
T0A68 002:531 JLINK_WriteReg(R15 (PC), 0x200000F4)  returns 0x00 (0000ms, 1664ms total)
T0A68 002:531 JLINK_WriteReg(XPSR, 0x01000000)  returns 0x00 (0000ms, 1664ms total)
T0A68 002:531 JLINK_WriteReg(MSP, 0x20001000)  returns 0x00 (0000ms, 1664ms total)
T0A68 002:532 JLINK_WriteReg(PSP, 0x20001000)  returns 0x00 (0000ms, 1665ms total)
T0A68 002:532 JLINK_WriteReg(CFBP, 0x00000000)  returns 0x00 (0000ms, 1665ms total)
T0A68 002:532 JLINK_SetBPEx(Addr = 0x20000000, Type = 0xFFFFFFF2)  returns 0x0000000A (0000ms, 1665ms total)
T0A68 002:532 JLINK_Go() -- CPU_ReadMem(4 bytes @ 0xE0001000) (0015ms, 1680ms total)
T0A68 002:547 JLINK_IsHalted()  returns FALSE (0005ms, 1685ms total)
T0A68 002:557 JLINK_IsHalted()  returns FALSE (0004ms, 1684ms total)
T0A68 002:562 JLINK_IsHalted()  returns FALSE (0004ms, 1684ms total)
T0A68 002:567 JLINK_IsHalted()  returns FALSE (0004ms, 1684ms total)
T0A68 002:572 JLINK_IsHalted()  returns FALSE (0004ms, 1684ms total)
T0A68 002:577 JLINK_IsHalted()  returns FALSE (0004ms, 1684ms total)
T0A68 002:590 JLINK_IsHalted()  returns FALSE (0004ms, 1684ms total)
T0A68 002:595 JLINK_IsHalted() -- CPU_ReadMem(2 bytes @ 0x20000000)  returns TRUE (0014ms, 1694ms total)
T0A68 002:609 JLINK_ReadReg(R15 (PC))  returns 0x20000000 (0000ms, 1680ms total)
T0A68 002:609 JLINK_ClrBPEx(BPHandle = 0x0000000A)  returns 0x00 (0000ms, 1680ms total)
T0A68 002:609 JLINK_ReadReg(R0)  returns 0x00000000 (0000ms, 1680ms total)
T0A68 002:610 JLINK_WriteMem(0x20000164, 0x0400 Bytes, ...) - Data: 0F 90 15 98 0E 90 14 98 0D 90 11 9B DD E9 0E 12 ... -- CPU_WriteMem(1024 bytes @ 0x20000164)  returns 0x400 (0007ms, 1687ms total)
T0A68 002:617 JLINK_WriteReg(R0, 0x08001800)  returns 0x00 (0000ms, 1687ms total)
T0A68 002:617 JLINK_WriteReg(R1, 0x00000400)  returns 0x00 (0000ms, 1687ms total)
T0A68 002:617 JLINK_WriteReg(R2, 0x20000164)  returns 0x00 (0000ms, 1687ms total)
T0A68 002:617 JLINK_WriteReg(R3, 0x00000000)  returns 0x00 (0000ms, 1687ms total)
T0A68 002:617 JLINK_WriteReg(R4, 0x00000000)  returns 0x00 (0000ms, 1687ms total)
T0A68 002:617 JLINK_WriteReg(R5, 0x00000000)  returns 0x00 (0000ms, 1687ms total)
T0A68 002:617 JLINK_WriteReg(R6, 0x00000000)  returns 0x00 (0000ms, 1687ms total)
T0A68 002:617 JLINK_WriteReg(R7, 0x00000000)  returns 0x00 (0000ms, 1687ms total)
T0A68 002:617 JLINK_WriteReg(R8, 0x00000000)  returns 0x00 (0000ms, 1687ms total)
T0A68 002:617 JLINK_WriteReg(R9, 0x20000160)  returns 0x00 (0000ms, 1687ms total)
T0A68 002:617 JLINK_WriteReg(R10, 0x00000000)  returns 0x00 (0001ms, 1688ms total)
T0A68 002:618 JLINK_WriteReg(R11, 0x00000000)  returns 0x00 (0000ms, 1688ms total)
T0A68 002:618 JLINK_WriteReg(R12, 0x00000000)  returns 0x00 (0000ms, 1688ms total)
T0A68 002:618 JLINK_WriteReg(R13 (SP), 0x20001000)  returns 0x00 (0000ms, 1688ms total)
T0A68 002:618 JLINK_WriteReg(R14, 0x20000001)  returns 0x00 (0000ms, 1688ms total)
T0A68 002:618 JLINK_WriteReg(R15 (PC), 0x200000F4)  returns 0x00 (0000ms, 1688ms total)
T0A68 002:618 JLINK_WriteReg(XPSR, 0x01000000)  returns 0x00 (0000ms, 1688ms total)
T0A68 002:618 JLINK_WriteReg(MSP, 0x20001000)  returns 0x00 (0000ms, 1688ms total)
T0A68 002:618 JLINK_WriteReg(PSP, 0x20001000)  returns 0x00 (0000ms, 1688ms total)
T0A68 002:618 JLINK_WriteReg(CFBP, 0x00000000)  returns 0x00 (0000ms, 1688ms total)
T0A68 002:618 JLINK_SetBPEx(Addr = 0x20000000, Type = 0xFFFFFFF2)  returns 0x0000000B (0000ms, 1688ms total)
T0A68 002:618 JLINK_Go() -- CPU_ReadMem(4 bytes @ 0xE0001000) (0015ms, 1703ms total)
T0A68 002:633 JLINK_IsHalted()  returns FALSE (0005ms, 1708ms total)
T0A68 002:656 JLINK_IsHalted()  returns FALSE (0005ms, 1708ms total)
T0A68 002:662 JLINK_IsHalted()  returns FALSE (0005ms, 1708ms total)
T0A68 002:668 JLINK_IsHalted()  returns FALSE (0005ms, 1708ms total)
T0A68 002:676 JLINK_IsHalted()  returns FALSE (0005ms, 1708ms total)
T0A68 002:682 JLINK_IsHalted() -- CPU_ReadMem(2 bytes @ 0x20000000)  returns TRUE (0014ms, 1717ms total)
T0A68 002:696 JLINK_ReadReg(R15 (PC))  returns 0x20000000 (0000ms, 1703ms total)
T0A68 002:696 JLINK_ClrBPEx(BPHandle = 0x0000000B)  returns 0x00 (0001ms, 1704ms total)
T0A68 002:697 JLINK_ReadReg(R0)  returns 0x00000000 (0000ms, 1704ms total)
T0A68 002:697 JLINK_WriteMem(0x20000164, 0x0400 Bytes, ...) - Data: 41 EA 02 21 0C 4A 12 68 92 78 41 EA 02 41 0A 4A ... -- CPU_WriteMem(1024 bytes @ 0x20000164)  returns 0x400 (0007ms, 1711ms total)
T0A68 002:704 JLINK_WriteReg(R0, 0x08001C00)  returns 0x00 (0000ms, 1711ms total)
T0A68 002:704 JLINK_WriteReg(R1, 0x00000400)  returns 0x00 (0000ms, 1711ms total)
T0A68 002:704 JLINK_WriteReg(R2, 0x20000164)  returns 0x00 (0000ms, 1711ms total)
T0A68 002:704 JLINK_WriteReg(R3, 0x00000000)  returns 0x00 (0000ms, 1711ms total)
T0A68 002:704 JLINK_WriteReg(R4, 0x00000000)  returns 0x00 (0000ms, 1711ms total)
T0A68 002:704 JLINK_WriteReg(R5, 0x00000000)  returns 0x00 (0000ms, 1711ms total)
T0A68 002:704 JLINK_WriteReg(R6, 0x00000000)  returns 0x00 (0000ms, 1711ms total)
T0A68 002:704 JLINK_WriteReg(R7, 0x00000000)  returns 0x00 (0000ms, 1711ms total)
T0A68 002:704 JLINK_WriteReg(R8, 0x00000000)  returns 0x00 (0000ms, 1711ms total)
T0A68 002:704 JLINK_WriteReg(R9, 0x20000160)  returns 0x00 (0000ms, 1711ms total)
T0A68 002:704 JLINK_WriteReg(R10, 0x00000000)  returns 0x00 (0001ms, 1712ms total)
T0A68 002:705 JLINK_WriteReg(R11, 0x00000000)  returns 0x00 (0000ms, 1712ms total)
T0A68 002:705 JLINK_WriteReg(R12, 0x00000000)  returns 0x00 (0000ms, 1712ms total)
T0A68 002:705 JLINK_WriteReg(R13 (SP), 0x20001000)  returns 0x00 (0000ms, 1712ms total)
T0A68 002:705 JLINK_WriteReg(R14, 0x20000001)  returns 0x00 (0000ms, 1712ms total)
T0A68 002:705 JLINK_WriteReg(R15 (PC), 0x200000F4)  returns 0x00 (0000ms, 1712ms total)
T0A68 002:705 JLINK_WriteReg(XPSR, 0x01000000)  returns 0x00 (0000ms, 1712ms total)
T0A68 002:705 JLINK_WriteReg(MSP, 0x20001000)  returns 0x00 (0000ms, 1712ms total)
T0A68 002:705 JLINK_WriteReg(PSP, 0x20001000)  returns 0x00 (0000ms, 1712ms total)
T0A68 002:705 JLINK_WriteReg(CFBP, 0x00000000)  returns 0x00 (0000ms, 1712ms total)
T0A68 002:705 JLINK_SetBPEx(Addr = 0x20000000, Type = 0xFFFFFFF2)  returns 0x0000000C (0000ms, 1712ms total)
T0A68 002:705 JLINK_Go() -- CPU_ReadMem(4 bytes @ 0xE0001000) (0015ms, 1727ms total)
T0A68 002:720 JLINK_IsHalted()  returns FALSE (0005ms, 1732ms total)
T0A68 002:739 JLINK_IsHalted()  returns FALSE (0005ms, 1732ms total)
T0A68 002:745 JLINK_IsHalted()  returns FALSE (0005ms, 1732ms total)
T0A68 002:751 JLINK_IsHalted()  returns FALSE (0005ms, 1732ms total)
T0A68 002:757 JLINK_IsHalted()  returns FALSE (0004ms, 1731ms total)
T0A68 002:762 JLINK_IsHalted()  returns FALSE (0005ms, 1732ms total)
T0A68 002:768 JLINK_IsHalted() -- CPU_ReadMem(2 bytes @ 0x20000000)  returns TRUE (0015ms, 1742ms total)
T0A68 002:783 JLINK_ReadReg(R15 (PC))  returns 0x20000000 (0000ms, 1727ms total)
T0A68 002:783 JLINK_ClrBPEx(BPHandle = 0x0000000C)  returns 0x00 (0000ms, 1727ms total)
T0A68 002:783 JLINK_ReadReg(R0)  returns 0x00000000 (0000ms, 1727ms total)
T0A68 002:784 JLINK_WriteMem(0x20000164, 0x0400 Bytes, ...) - Data: 41 F8 08 0C 03 48 00 68 00 1F 02 49 08 60 00 BF ... -- CPU_WriteMem(1024 bytes @ 0x20000164)  returns 0x400 (0007ms, 1734ms total)
T0A68 002:791 JLINK_WriteReg(R0, 0x08002000)  returns 0x00 (0000ms, 1734ms total)
T0A68 002:791 JLINK_WriteReg(R1, 0x00000400)  returns 0x00 (0000ms, 1734ms total)
T0A68 002:791 JLINK_WriteReg(R2, 0x20000164)  returns 0x00 (0000ms, 1734ms total)
T0A68 002:791 JLINK_WriteReg(R3, 0x00000000)  returns 0x00 (0000ms, 1734ms total)
T0A68 002:791 JLINK_WriteReg(R4, 0x00000000)  returns 0x00 (0000ms, 1734ms total)
T0A68 002:791 JLINK_WriteReg(R5, 0x00000000)  returns 0x00 (0000ms, 1734ms total)
T0A68 002:791 JLINK_WriteReg(R6, 0x00000000)  returns 0x00 (0000ms, 1734ms total)
T0A68 002:791 JLINK_WriteReg(R7, 0x00000000)  returns 0x00 (0000ms, 1734ms total)
T0A68 002:791 JLINK_WriteReg(R8, 0x00000000)  returns 0x00 (0000ms, 1734ms total)
T0A68 002:791 JLINK_WriteReg(R9, 0x20000160)  returns 0x00 (0000ms, 1734ms total)
T0A68 002:791 JLINK_WriteReg(R10, 0x00000000)  returns 0x00 (0001ms, 1735ms total)
T0A68 002:792 JLINK_WriteReg(R11, 0x00000000)  returns 0x00 (0000ms, 1735ms total)
T0A68 002:792 JLINK_WriteReg(R12, 0x00000000)  returns 0x00 (0000ms, 1735ms total)
T0A68 002:792 JLINK_WriteReg(R13 (SP), 0x20001000)  returns 0x00 (0000ms, 1735ms total)
T0A68 002:792 JLINK_WriteReg(R14, 0x20000001)  returns 0x00 (0000ms, 1735ms total)
T0A68 002:792 JLINK_WriteReg(R15 (PC), 0x200000F4)  returns 0x00 (0000ms, 1735ms total)
T0A68 002:792 JLINK_WriteReg(XPSR, 0x01000000)  returns 0x00 (0000ms, 1735ms total)
T0A68 002:792 JLINK_WriteReg(MSP, 0x20001000)  returns 0x00 (0000ms, 1735ms total)
T0A68 002:792 JLINK_WriteReg(PSP, 0x20001000)  returns 0x00 (0000ms, 1735ms total)
T0A68 002:792 JLINK_WriteReg(CFBP, 0x00000000)  returns 0x00 (0000ms, 1735ms total)
T0A68 002:792 JLINK_SetBPEx(Addr = 0x20000000, Type = 0xFFFFFFF2)  returns 0x0000000D (0000ms, 1735ms total)
T0A68 002:792 JLINK_Go() -- CPU_ReadMem(4 bytes @ 0xE0001000) (0015ms, 1750ms total)
T0A68 002:807 JLINK_IsHalted()  returns FALSE (0004ms, 1754ms total)
T0A68 002:823 JLINK_IsHalted()  returns FALSE (0005ms, 1755ms total)
T0A68 002:829 JLINK_IsHalted()  returns FALSE (0005ms, 1755ms total)
T0A68 002:837 JLINK_IsHalted()  returns FALSE (0005ms, 1755ms total)
T0A68 002:843 JLINK_IsHalted()  returns FALSE (0005ms, 1755ms total)
T0A68 002:849 JLINK_IsHalted()  returns FALSE (0004ms, 1754ms total)
T0A68 002:854 JLINK_IsHalted() -- CPU_ReadMem(2 bytes @ 0x20000000)  returns TRUE (0015ms, 1765ms total)
T0A68 002:869 JLINK_ReadReg(R15 (PC))  returns 0x20000000 (0000ms, 1750ms total)
T0A68 002:869 JLINK_ClrBPEx(BPHandle = 0x0000000D)  returns 0x00 (0000ms, 1750ms total)
T0A68 002:869 JLINK_ReadReg(R0)  returns 0x00000000 (0000ms, 1750ms total)
T0A68 002:870 JLINK_WriteMem(0x20000164, 0x0400 Bytes, ...) - Data: 40 04 64 00 7D 4D 2C 70 42 EA 03 04 74 4D 2C 70 ... -- CPU_WriteMem(1024 bytes @ 0x20000164)  returns 0x400 (0006ms, 1756ms total)
T0A68 002:876 JLINK_WriteReg(R0, 0x08002400)  returns 0x00 (0001ms, 1757ms total)
T0A68 002:877 JLINK_WriteReg(R1, 0x00000400)  returns 0x00 (0000ms, 1757ms total)
T0A68 002:877 JLINK_WriteReg(R2, 0x20000164)  returns 0x00 (0000ms, 1757ms total)
T0A68 002:877 JLINK_WriteReg(R3, 0x00000000)  returns 0x00 (0000ms, 1757ms total)
T0A68 002:877 JLINK_WriteReg(R4, 0x00000000)  returns 0x00 (0000ms, 1757ms total)
T0A68 002:877 JLINK_WriteReg(R5, 0x00000000)  returns 0x00 (0000ms, 1757ms total)
T0A68 002:877 JLINK_WriteReg(R6, 0x00000000)  returns 0x00 (0000ms, 1757ms total)
T0A68 002:877 JLINK_WriteReg(R7, 0x00000000)  returns 0x00 (0000ms, 1757ms total)
T0A68 002:877 JLINK_WriteReg(R8, 0x00000000)  returns 0x00 (0000ms, 1757ms total)
T0A68 002:877 JLINK_WriteReg(R9, 0x20000160)  returns 0x00 (0000ms, 1757ms total)
T0A68 002:877 JLINK_WriteReg(R10, 0x00000000)  returns 0x00 (0000ms, 1757ms total)
T0A68 002:877 JLINK_WriteReg(R11, 0x00000000)  returns 0x00 (0000ms, 1757ms total)
T0A68 002:877 JLINK_WriteReg(R12, 0x00000000)  returns 0x00 (0000ms, 1757ms total)
T0A68 002:877 JLINK_WriteReg(R13 (SP), 0x20001000)  returns 0x00 (0000ms, 1757ms total)
T0A68 002:877 JLINK_WriteReg(R14, 0x20000001)  returns 0x00 (0000ms, 1757ms total)
T0A68 002:877 JLINK_WriteReg(R15 (PC), 0x200000F4)  returns 0x00 (0000ms, 1757ms total)
T0A68 002:877 JLINK_WriteReg(XPSR, 0x01000000)  returns 0x00 (0000ms, 1757ms total)
T0A68 002:877 JLINK_WriteReg(MSP, 0x20001000)  returns 0x00 (0001ms, 1758ms total)
T0A68 002:878 JLINK_WriteReg(PSP, 0x20001000)  returns 0x00 (0000ms, 1758ms total)
T0A68 002:878 JLINK_WriteReg(CFBP, 0x00000000)  returns 0x00 (0000ms, 1758ms total)
T0A68 002:878 JLINK_SetBPEx(Addr = 0x20000000, Type = 0xFFFFFFF2)  returns 0x0000000E (0000ms, 1758ms total)
T0A68 002:878 JLINK_Go() -- CPU_ReadMem(4 bytes @ 0xE0001000) (0015ms, 1773ms total)
T0A68 002:898 JLINK_IsHalted()  returns FALSE (0005ms, 1778ms total)
T0A68 002:905 JLINK_IsHalted()  returns FALSE (0005ms, 1778ms total)
T0A68 002:915 JLINK_IsHalted()  returns FALSE (0005ms, 1778ms total)
T0A68 002:921 JLINK_IsHalted()  returns FALSE (0005ms, 1778ms total)
T0A68 002:930 JLINK_IsHalted()  returns FALSE (0005ms, 1778ms total)
T0A68 002:936 JLINK_IsHalted()  returns FALSE (0005ms, 1778ms total)
T0A68 002:945 JLINK_IsHalted() -- CPU_ReadMem(2 bytes @ 0x20000000)  returns TRUE (0015ms, 1788ms total)
T0A68 002:960 JLINK_ReadReg(R15 (PC))  returns 0x20000000 (0000ms, 1773ms total)
T0A68 002:960 JLINK_ClrBPEx(BPHandle = 0x0000000E)  returns 0x00 (0000ms, 1773ms total)
T0A68 002:960 JLINK_ReadReg(R0)  returns 0x00000000 (0000ms, 1773ms total)
T0A68 002:961 JLINK_WriteMem(0x20000164, 0x0400 Bytes, ...) - Data: E8 E0 15 24 75 4D 2C 70 75 4C 64 79 75 4D 2C 70 ... -- CPU_WriteMem(1024 bytes @ 0x20000164)  returns 0x400 (0007ms, 1780ms total)
T0A68 002:968 JLINK_WriteReg(R0, 0x08002800)  returns 0x00 (0000ms, 1780ms total)
T0A68 002:968 JLINK_WriteReg(R1, 0x00000400)  returns 0x00 (0000ms, 1780ms total)
T0A68 002:968 JLINK_WriteReg(R2, 0x20000164)  returns 0x00 (0000ms, 1780ms total)
T0A68 002:968 JLINK_WriteReg(R3, 0x00000000)  returns 0x00 (0000ms, 1780ms total)
T0A68 002:968 JLINK_WriteReg(R4, 0x00000000)  returns 0x00 (0000ms, 1780ms total)
T0A68 002:968 JLINK_WriteReg(R5, 0x00000000)  returns 0x00 (0000ms, 1780ms total)
T0A68 002:968 JLINK_WriteReg(R6, 0x00000000)  returns 0x00 (0000ms, 1780ms total)
T0A68 002:968 JLINK_WriteReg(R7, 0x00000000)  returns 0x00 (0000ms, 1780ms total)
T0A68 002:968 JLINK_WriteReg(R8, 0x00000000)  returns 0x00 (0000ms, 1780ms total)
T0A68 002:968 JLINK_WriteReg(R9, 0x20000160)  returns 0x00 (0000ms, 1780ms total)
T0A68 002:968 JLINK_WriteReg(R10, 0x00000000)  returns 0x00 (0000ms, 1780ms total)
T0A68 002:968 JLINK_WriteReg(R11, 0x00000000)  returns 0x00 (0000ms, 1780ms total)
T0A68 002:968 JLINK_WriteReg(R12, 0x00000000)  returns 0x00 (0000ms, 1780ms total)
T0A68 002:968 JLINK_WriteReg(R13 (SP), 0x20001000)  returns 0x00 (0000ms, 1780ms total)
T0A68 002:968 JLINK_WriteReg(R14, 0x20000001)  returns 0x00 (0000ms, 1780ms total)
T0A68 002:968 JLINK_WriteReg(R15 (PC), 0x200000F4)  returns 0x00 (0001ms, 1781ms total)
T0A68 002:969 JLINK_WriteReg(XPSR, 0x01000000)  returns 0x00 (0000ms, 1781ms total)
T0A68 002:969 JLINK_WriteReg(MSP, 0x20001000)  returns 0x00 (0000ms, 1781ms total)
T0A68 002:969 JLINK_WriteReg(PSP, 0x20001000)  returns 0x00 (0000ms, 1781ms total)
T0A68 002:969 JLINK_WriteReg(CFBP, 0x00000000)  returns 0x00 (0000ms, 1781ms total)
T0A68 002:969 JLINK_SetBPEx(Addr = 0x20000000, Type = 0xFFFFFFF2)  returns 0x0000000F (0000ms, 1781ms total)
T0A68 002:969 JLINK_Go() -- CPU_ReadMem(4 bytes @ 0xE0001000) (0015ms, 1796ms total)
T0A68 002:984 JLINK_IsHalted()  returns FALSE (0005ms, 1801ms total)
T0A68 002:990 JLINK_IsHalted()  returns FALSE (0005ms, 1801ms total)
T0A68 002:996 JLINK_IsHalted()  returns FALSE (0004ms, 1800ms total)
T0A68 003:001 JLINK_IsHalted()  returns FALSE (0005ms, 1801ms total)
T0A68 003:007 JLINK_IsHalted()  returns FALSE (0005ms, 1801ms total)
T0A68 003:013 JLINK_IsHalted()  returns FALSE (0005ms, 1801ms total)
T0A68 003:019 JLINK_IsHalted()  returns FALSE (0005ms, 1801ms total)
T0A68 003:034 JLINK_IsHalted() -- CPU_ReadMem(2 bytes @ 0x20000000)  returns TRUE (0015ms, 1811ms total)
T0A68 003:049 JLINK_ReadReg(R15 (PC))  returns 0x20000000 (0000ms, 1796ms total)
T0A68 003:049 JLINK_ClrBPEx(BPHandle = 0x0000000F)  returns 0x00 (0000ms, 1796ms total)
T0A68 003:049 JLINK_ReadReg(R0)  returns 0x00000000 (0000ms, 1796ms total)
T0A68 003:050 JLINK_WriteMem(0x20000164, 0x0400 Bytes, ...) - Data: 80 60 48 60 08 46 40 68 20 F4 7C 10 48 60 08 46 ... -- CPU_WriteMem(1024 bytes @ 0x20000164)  returns 0x400 (0006ms, 1802ms total)
T0A68 003:056 JLINK_WriteReg(R0, 0x08002C00)  returns 0x00 (0000ms, 1802ms total)
T0A68 003:056 JLINK_WriteReg(R1, 0x00000400)  returns 0x00 (0000ms, 1802ms total)
T0A68 003:057 JLINK_WriteReg(R2, 0x20000164)  returns 0x00 (0000ms, 1803ms total)
T0A68 003:057 JLINK_WriteReg(R3, 0x00000000)  returns 0x00 (0000ms, 1803ms total)
T0A68 003:057 JLINK_WriteReg(R4, 0x00000000)  returns 0x00 (0000ms, 1803ms total)
T0A68 003:057 JLINK_WriteReg(R5, 0x00000000)  returns 0x00 (0000ms, 1803ms total)
T0A68 003:057 JLINK_WriteReg(R6, 0x00000000)  returns 0x00 (0000ms, 1803ms total)
T0A68 003:057 JLINK_WriteReg(R7, 0x00000000)  returns 0x00 (0000ms, 1803ms total)
T0A68 003:057 JLINK_WriteReg(R8, 0x00000000)  returns 0x00 (0000ms, 1803ms total)
T0A68 003:057 JLINK_WriteReg(R9, 0x20000160)  returns 0x00 (0000ms, 1803ms total)
T0A68 003:057 JLINK_WriteReg(R10, 0x00000000)  returns 0x00 (0000ms, 1803ms total)
T0A68 003:057 JLINK_WriteReg(R11, 0x00000000)  returns 0x00 (0000ms, 1803ms total)
T0A68 003:057 JLINK_WriteReg(R12, 0x00000000)  returns 0x00 (0000ms, 1803ms total)
T0A68 003:057 JLINK_WriteReg(R13 (SP), 0x20001000)  returns 0x00 (0000ms, 1803ms total)
T0A68 003:057 JLINK_WriteReg(R14, 0x20000001)  returns 0x00 (0000ms, 1803ms total)
T0A68 003:057 JLINK_WriteReg(R15 (PC), 0x200000F4)  returns 0x00 (0000ms, 1803ms total)
T0A68 003:057 JLINK_WriteReg(XPSR, 0x01000000)  returns 0x00 (0000ms, 1803ms total)
T0A68 003:057 JLINK_WriteReg(MSP, 0x20001000)  returns 0x00 (0000ms, 1803ms total)
T0A68 003:057 JLINK_WriteReg(PSP, 0x20001000)  returns 0x00 (0001ms, 1804ms total)
T0A68 003:058 JLINK_WriteReg(CFBP, 0x00000000)  returns 0x00 (0000ms, 1804ms total)
T0A68 003:058 JLINK_SetBPEx(Addr = 0x20000000, Type = 0xFFFFFFF2)  returns 0x00000010 (0000ms, 1804ms total)
